! 5/6/2020 9:36:50 PM
! C:\ANRITSUVNA\TEMP\TEMP.S2P
! CHANNEL.1
! TR.MEASUREMENT
! CORRECTED.DATA
# HZ S RI R 50.0
! FREQ.HZ          S11RE         S11IM         S21RE         S21IM         S12RE         S12IM         S22RE         S22IM         
!; PortSelection: Port_12
    8000000000    -0.1521576    0.1229034    -0.0476727    0.0195756    -0.0465780    0.0200771    -0.2914717   -0.0911710 
    8004003203    -0.1742573    0.1238811    -0.0456899    0.0277423    -0.0435614    0.0278651    -0.2802779   -0.1080547 
    8008006405    -0.1886782    0.1264782    -0.0404272    0.0365334    -0.0386833    0.0362808    -0.2645074   -0.1194304 
    8012009608    -0.1995739    0.1227659    -0.0326648    0.0448545    -0.0313267    0.0443291    -0.2433654   -0.1274955 
    8016012810    -0.2031460    0.1121538    -0.0215948    0.0506129    -0.0206976    0.0499987    -0.2160022   -0.1322481 
    8020016013    -0.2012551    0.0946602    -0.0103638    0.0517583    -0.0096362    0.0510534    -0.1864517   -0.1339231 
    8024019215    -0.1984773    0.0742931    -0.0019106    0.0499973    -0.0011663    0.0495068    -0.1571110   -0.1317023 
    8028022418    -0.1915294    0.0525196     0.0046429    0.0490774     0.0053056    0.0484601    -0.1288113   -0.1244505 
    8032025620    -0.1817939    0.0335052     0.0115269    0.0484184     0.0124292    0.0478230    -0.1032006   -0.1121946 
    8036028823    -0.1690299    0.0173907     0.0190271    0.0473940     0.0199828    0.0464667    -0.0810308   -0.0936686 
    8040032026    -0.1558187    0.0053702     0.0275597    0.0449036     0.0286427    0.0435409    -0.0619767   -0.0695231 
    8044035228    -0.1393719    0.0018029     0.0360106    0.0395725     0.0368904    0.0380874    -0.0466610   -0.0416990 
    8048038431    -0.1204670    0.0045339     0.0428678    0.0324262     0.0432010    0.0308274    -0.0364400   -0.0135949 
    8052041633    -0.0978378    0.0143506     0.0480543    0.0240613     0.0483206    0.0225865    -0.0328954    0.0160559 
    8056044836    -0.0713311    0.0264866     0.0511614    0.0147673     0.0511111    0.0134934    -0.0361885    0.0454463 
    8060048038    -0.0437083    0.0396518     0.0522988    0.0055147     0.0522899    0.0045908    -0.0446862    0.0737886 
    8064051241    -0.0205100    0.0511630     0.0517853   -0.0030436     0.0516304   -0.0038012    -0.0559384    0.1003289 
    8068054444    -0.0032197    0.0626262     0.0506258   -0.0105729     0.0504658   -0.0110604    -0.0704735    0.1194982 
    8072057646     0.0083500    0.0759265     0.0495025   -0.0184353     0.0492625   -0.0189039    -0.0885788    0.1310348 
    8076060849     0.0169770    0.0914274     0.0472755   -0.0271461     0.0467273   -0.0274398    -0.1112973    0.1368484 
    8080064051     0.0216298    0.1072403     0.0433165   -0.0361411     0.0426801   -0.0364124    -0.1366289    0.1400810 
    8084067254     0.0208720    0.1230323     0.0364546   -0.0453274     0.0353906   -0.0454485    -0.1606626    0.1392102 
    8088070456     0.0156219    0.1382760     0.0263499   -0.0523155     0.0248690   -0.0521754    -0.1809457    0.1337149 
    8092073659     0.0070097    0.1562275     0.0147701   -0.0555373     0.0132453   -0.0548421    -0.1979260    0.1219188 
    8096076861    -0.0004811    0.1757311     0.0039038   -0.0550867     0.0024000   -0.0539335    -0.2115754    0.1065976 
    8100080064    -0.0037794    0.1913048    -0.0044879   -0.0525395    -0.0057442   -0.0512196    -0.2207323    0.0891541 
    8104083267    -0.0070786    0.2008830    -0.0109825   -0.0507434    -0.0120434   -0.0491457    -0.2233526    0.0704053 
    8108086469    -0.0105541    0.2058752    -0.0178444   -0.0494869    -0.0186100   -0.0477196    -0.2188680    0.0501755 
    8112089672    -0.0153578    0.2059462    -0.0260185   -0.0481967    -0.0265308   -0.0463440    -0.2076021    0.0280343 
    8116092874    -0.0213769    0.2011495    -0.0360791   -0.0448591    -0.0361925   -0.0429071    -0.1907773    0.0041422 
    8120096077    -0.0279305    0.1903686    -0.0463470   -0.0380222    -0.0461423   -0.0359155    -0.1688325   -0.0201843 
    8124099279    -0.0364296    0.1746248    -0.0551338   -0.0270458    -0.0542888   -0.0251325    -0.1454440   -0.0429329 
    8128102482    -0.0461626    0.1557402    -0.0594226   -0.0129916    -0.0581548   -0.0114043    -0.1192074   -0.0611785 
    8132105685    -0.0577572    0.1365145    -0.0582445    0.0006756    -0.0566852    0.0018766    -0.0909330   -0.0750875 
    8136108887    -0.0663948    0.1201003    -0.0534729    0.0110916    -0.0518896    0.0119507    -0.0620522   -0.0844928 
    8140112090    -0.0671473    0.1056702    -0.0480021    0.0181039    -0.0465579    0.0187267    -0.0350841   -0.0885661 
    8144115292    -0.0603046    0.0885589    -0.0433642    0.0228309    -0.0421477    0.0233590    -0.0100199   -0.0846294 
    8148118495    -0.0504934    0.0712047    -0.0403742    0.0272480    -0.0391494    0.0278940     0.0124315   -0.0720944 
    8152121697    -0.0361819    0.0559402    -0.0377223    0.0327870    -0.0364452    0.0338125     0.0340642   -0.0522195 
    8156124900    -0.0178703    0.0417006    -0.0339033    0.0396494    -0.0323628    0.0407539     0.0535524   -0.0290624 
    8160128102     0.0043007    0.0310829    -0.0275392    0.0468580    -0.0256252    0.0479566     0.0678659   -0.0031856 
    8164131305     0.0308082    0.0234829    -0.0185130    0.0529656    -0.0163622    0.0536967     0.0773690    0.0238995 
    8168134508     0.0577564    0.0162655    -0.0070978    0.0562754    -0.0048015    0.0566703     0.0791830    0.0519116 
    8172137710     0.0808986    0.0082957     0.0047535    0.0557129     0.0069045    0.0557204     0.0749386    0.0801216 
    8176140913     0.0960831    0.0065280     0.0151533    0.0518529     0.0169208    0.0516151     0.0684568    0.1067281 
    8180144115     0.1070582    0.0128329     0.0224598    0.0463162     0.0239043    0.0459599     0.0584990    0.1252165 
    8184147318     0.1178789    0.0285426     0.0276766    0.0420253     0.0287817    0.0415638     0.0428491    0.1358310 
    8188150520     0.1300387    0.0467571     0.0336808    0.0387863     0.0344963    0.0382237     0.0214952    0.1404446 
    8192153723     0.1397066    0.0638572     0.0409829    0.0338851     0.0413515    0.0331776    -0.0031826    0.1402890 
    8196156926     0.1465781    0.0804697     0.0475933    0.0268003     0.0476451    0.0260753    -0.0269194    0.1347508 
    8200160128     0.1495280    0.0941794     0.0524378    0.0178653     0.0523175    0.0172340    -0.0484398    0.1225565 
    8204163331     0.1490069    0.1058722     0.0551946    0.0082537     0.0548212    0.0079069    -0.0682784    0.1038932 
    8208166533     0.1470888    0.1123836     0.0565966   -0.0018255     0.0561384   -0.0024112    -0.0865565    0.0788314 
    8212169736     0.1412709    0.1135783     0.0558380   -0.0130408     0.0551241   -0.0137724    -0.1031291    0.0505095 
    8216172938     0.1271211    0.1092089     0.0511207   -0.0243459     0.0500887   -0.0249873    -0.1164329    0.0229291 
    8220176141     0.1061684    0.1047325     0.0435761   -0.0320005     0.0423117   -0.0322760    -0.1220245   -0.0027252 
    8224179343     0.0840245    0.1008797     0.0371952   -0.0366843     0.0359452   -0.0366517    -0.1181626   -0.0301937 
    8228182546     0.0642839    0.0966837     0.0320686   -0.0421691     0.0308269   -0.0415859    -0.1100486   -0.0605106 
    8232185749     0.0466107    0.0894190     0.0249172   -0.0488247     0.0240170   -0.0478139    -0.1009116   -0.0897690 
    8236188951     0.0290800    0.0782322     0.0146203   -0.0536323     0.0141388   -0.0522576    -0.0884968   -0.1132961 
    8240192154     0.0145191    0.0672791     0.0032921   -0.0549588     0.0035487   -0.0535015    -0.0703672   -0.1313182 
    8244195356     0.0048558    0.0560440    -0.0068236   -0.0530921    -0.0063547   -0.0517084    -0.0478593   -0.1446003 
    8248198559     0.0029675    0.0441070    -0.0149441   -0.0499382    -0.0141429   -0.0489727    -0.0220469   -0.1530747 
    8252201761     0.0072251    0.0269260    -0.0222314   -0.0465756    -0.0215575   -0.0457499     0.0047362   -0.1565946 
    8256204964     0.0146799    0.0041466    -0.0287293   -0.0421830    -0.0282974   -0.0417814     0.0299948   -0.1537810 
    8260208167     0.0215847   -0.0220025    -0.0347497   -0.0375908    -0.0347936   -0.0370281     0.0532533   -0.1447205 
    8264211369     0.0266872   -0.0454069    -0.0402662   -0.0322026    -0.0406956   -0.0313864     0.0759751   -0.1294149 
    8268214572     0.0335222   -0.0649736    -0.0456500   -0.0261144    -0.0463754   -0.0246155     0.0974097   -0.1096654 
    8272217774     0.0420907   -0.0797492    -0.0504423   -0.0179896    -0.0509411   -0.0161160     0.1153081   -0.0891148 
    8276220977     0.0543875   -0.0906690    -0.0527244   -0.0085934    -0.0529554   -0.0065370     0.1261604   -0.0674297 
    8280224179     0.0683728   -0.0988255    -0.0536854    0.0004005    -0.0533186    0.0022705     0.1284502   -0.0446028 
    8284227382     0.0806058   -0.1007019    -0.0535125    0.0096410    -0.0528231    0.0113277     0.1228774   -0.0206480 
    8288230584     0.0936620   -0.0967494    -0.0517467    0.0198920    -0.0507224    0.0212025     0.1132188    0.0008880 
    8292233787     0.1080996   -0.0868114    -0.0464237    0.0302905    -0.0453729    0.0307809     0.0981053    0.0190903 
    8296236990     0.1243126   -0.0766365    -0.0383338    0.0371483    -0.0374807    0.0371204     0.0755655    0.0312259 
    8300240192     0.1387913   -0.0667577    -0.0313532    0.0412608    -0.0308313    0.0409747     0.0465806    0.0389267 
    8304243395     0.1473220   -0.0584370    -0.0254043    0.0453859    -0.0252024    0.0449554     0.0133610    0.0431129 
    8308246597     0.1483974   -0.0482968    -0.0186009    0.0503965    -0.0186166    0.0499776    -0.0195550    0.0439087 
    8312249800     0.1448387   -0.0362301    -0.0090477    0.0545330    -0.0092747    0.0543417    -0.0497486    0.0382887 
    8316253002     0.1370736   -0.0224643     0.0019938    0.0554690     0.0019596    0.0555308    -0.0795508    0.0257599 
    8320256205     0.1258715   -0.0102072     0.0124107    0.0535638     0.0126880    0.0533595    -0.1075026    0.0092752 
    8324259408     0.1086782    0.0006141     0.0214366    0.0498998     0.0219135    0.0494451    -0.1313339   -0.0083897 
    8328262610     0.0870803    0.0121527     0.0302379    0.0453367     0.0305467    0.0445505    -0.1479081   -0.0267337 
    8332265813     0.0635547    0.0251331     0.0386647    0.0378511     0.0385501    0.0369073    -0.1550554   -0.0473478 
    8336269015     0.0440067    0.0379283     0.0433648    0.0279974     0.0426825    0.0272258    -0.1537434   -0.0719099 
    8340272218     0.0291469    0.0433665     0.0446637    0.0199502     0.0438556    0.0196088    -0.1482349   -0.1003033 
    8344275420     0.0155421    0.0402103     0.0464274    0.0135397     0.0454229    0.0135754    -0.1404089   -0.1277705 
    8348278623     0.0016708    0.0294711     0.0483146    0.0065993     0.0471988    0.0070448    -0.1282060   -0.1517269 
    8352281825    -0.0132803    0.0152680     0.0492258   -0.0015607     0.0484099   -0.0006261    -0.1106216   -0.1712901 
    8356285028    -0.0254945   -0.0011082     0.0485727   -0.0096295     0.0478643   -0.0084187    -0.0879833   -0.1865073 
    8360288231    -0.0336753   -0.0201854     0.0471498   -0.0168674     0.0468604   -0.0157225    -0.0616786   -0.1978177 
    8364291433    -0.0389491   -0.0425468     0.0454041   -0.0252189     0.0453945   -0.0242030    -0.0355384   -0.2064561 
    8368294636    -0.0431009   -0.0665684     0.0411140   -0.0342734     0.0409932   -0.0336372    -0.0130197   -0.2091628 
    8372297838    -0.0479356   -0.0880501     0.0334350   -0.0419552     0.0333266   -0.0418803     0.0070212   -0.2041443 
    8376301041    -0.0508568   -0.1024066     0.0242565   -0.0463224     0.0236501   -0.0464204     0.0252729   -0.1904421 
    8380304243    -0.0475356   -0.1109255     0.0161552   -0.0480349     0.0150320   -0.0480826     0.0438549   -0.1705429 
    8384307446    -0.0363502   -0.1150668     0.0092906   -0.0492450     0.0078780   -0.0491612     0.0586980   -0.1479693 
    8388310649    -0.0218485   -0.1198722     0.0016834   -0.0509527     0.0002727   -0.0503917     0.0669807   -0.1242315 
    8392313851    -0.0056266   -0.1224871    -0.0074432   -0.0513022    -0.0084773   -0.0503412     0.0663212   -0.0967342 
    8396317054     0.0109001   -0.1219751    -0.0163995   -0.0490073    -0.0169793   -0.0477721     0.0593673   -0.0663778 
    8400320256     0.0276143   -0.1187317    -0.0239847   -0.0454883    -0.0241224   -0.0445223     0.0488096   -0.0359785 
    8404323459     0.0427524   -0.1140751    -0.0318317   -0.0417403    -0.0314742   -0.0410476     0.0337877   -0.0077286 
    8408326661     0.0552882   -0.1078775    -0.0402305   -0.0361156    -0.0395338   -0.0357455     0.0139619    0.0160400 
    8412329864     0.0623218   -0.1008672    -0.0472279   -0.0268293    -0.0466372   -0.0269449    -0.0099902    0.0341675 
    8416333066     0.0610460   -0.0888549    -0.0499986   -0.0160070    -0.0495199   -0.0161611    -0.0365932    0.0471133 
    8420336269     0.0600256   -0.0698694    -0.0492799   -0.0072293    -0.0489697   -0.0073603    -0.0648275    0.0552236 
    8424339472     0.0612628   -0.0491663    -0.0486213   -0.0007814    -0.0483565   -0.0008894    -0.0916102    0.0566746 
    8428342674     0.0613564   -0.0313741    -0.0490544    0.0059585    -0.0488203    0.0058782    -0.1156538    0.0501085 
    8432345877     0.0568761   -0.0148099    -0.0487005    0.0139680    -0.0484861    0.0141631    -0.1376705    0.0362199 
    8436349079     0.0494950    0.0019978    -0.0464830    0.0231139    -0.0460845    0.0234315    -0.1587554    0.0170557 
    8440352282     0.0409349    0.0183113    -0.0415186    0.0321484    -0.0407977    0.0322388    -0.1759145   -0.0040606 
    8444355484     0.0320589    0.0324370    -0.0339203    0.0394331    -0.0329992    0.0393235    -0.1861085   -0.0276998 
    8448358687     0.0231859    0.0409032    -0.0250042    0.0440779    -0.0243143    0.0436152    -0.1908672   -0.0543947 
    8452361890     0.0109762    0.0407304    -0.0159640    0.0463975    -0.0156996    0.0455796    -0.1918708   -0.0831325 
    8456365092    -0.0081386    0.0367612    -0.0081296    0.0465771    -0.0081252    0.0457442    -0.1896456   -0.1108014 
    8460368295    -0.0315815    0.0329556    -0.0014351    0.0462885    -0.0018483    0.0455042    -0.1823570   -0.1335339 
    8464371497    -0.0529921    0.0304562     0.0046974    0.0464258     0.0041371    0.0457207    -0.1689043   -0.1514940 
    8468374700    -0.0703525    0.0245313     0.0119252    0.0463920     0.0112318    0.0459001    -0.1486841   -0.1657798 
    8472377902    -0.0853935    0.0154695     0.0197994    0.0447917     0.0191459    0.0443847    -0.1247271   -0.1772963 
    8476381105    -0.0967158    0.0049963     0.0276644    0.0421047     0.0271692    0.0418012    -0.1009190   -0.1848784 
    8480384307    -0.1030255   -0.0069636     0.0361387    0.0377659     0.0358318    0.0373059    -0.0779109   -0.1848789 
    8484387510    -0.1044708   -0.0195760     0.0444821    0.0299844     0.0441245    0.0293980    -0.0550893   -0.1772690 
    8488390713    -0.0996499   -0.0326862     0.0492355    0.0189102     0.0490378    0.0180963    -0.0302716   -0.1616405 
    8492393915    -0.0873518   -0.0475721     0.0488544    0.0079558     0.0485015    0.0069592    -0.0065337   -0.1416525 
    8496397118    -0.0754833   -0.0642632     0.0455984    0.0007275     0.0450057   -0.0003865     0.0150125   -0.1178837 
    8500400320    -0.0635736   -0.0772543     0.0437245   -0.0032849     0.0429618   -0.0043253     0.0299013   -0.0916909 
    8504403523    -0.0485453   -0.0848338     0.0441247   -0.0079305     0.0433513   -0.0086096     0.0380874   -0.0615513 
    8508406725    -0.0300663   -0.0875894     0.0447384   -0.0147026     0.0438692   -0.0150721     0.0397587   -0.0280005 
    8512409928    -0.0099204   -0.0876579     0.0434126   -0.0228016     0.0425929   -0.0229040     0.0388631    0.0064549 
    8516413131     0.0087129   -0.0850065     0.0399295   -0.0313586     0.0393782   -0.0311809     0.0345582    0.0368239 
    8520416333     0.0232362   -0.0778032     0.0341299   -0.0395210     0.0337567   -0.0391786     0.0251751    0.0600523 
    8524419536     0.0349193   -0.0656935     0.0259112   -0.0465251     0.0257833   -0.0461425     0.0078312    0.0758589 
    8528422738     0.0459013   -0.0485769     0.0151179   -0.0511156     0.0150181   -0.0506642    -0.0170605    0.0867195 
    8532425941     0.0572561   -0.0293929     0.0036444   -0.0506312     0.0034662   -0.0503255    -0.0464348    0.0931186 
    8536429143     0.0668030   -0.0132693    -0.0042699   -0.0469956    -0.0044830   -0.0467589    -0.0774249    0.0945261 
    8540432346     0.0693254    0.0013966    -0.0089520   -0.0442588    -0.0091607   -0.0438767    -0.1067918    0.0896662 
    8544435548     0.0661475    0.0185965    -0.0137731   -0.0436676    -0.0141832   -0.0432158    -0.1346825    0.0781940 
    8548438751     0.0604542    0.0364701    -0.0204572   -0.0427216    -0.0209949   -0.0420353    -0.1606404    0.0619915 
    8552441954     0.0536360    0.0538488    -0.0276278   -0.0401053    -0.0281237   -0.0392444    -0.1830474    0.0414599 
    8556445156     0.0437165    0.0664089    -0.0353722   -0.0363277    -0.0357275   -0.0351307    -0.1999614    0.0211582 
    8560448359     0.0317953    0.0756769    -0.0433715   -0.0298262    -0.0432474   -0.0286199    -0.2094185   -0.0010414 
    8564451561     0.0164977    0.0817721    -0.0497298   -0.0201321    -0.0492907   -0.0189753    -0.2113827   -0.0245142 
    8568454764    -0.0026016    0.0851611    -0.0522722   -0.0081150    -0.0515255   -0.0074825    -0.2048246   -0.0472521 
    8572457966    -0.0199626    0.0879270    -0.0502348    0.0025282    -0.0492551    0.0028124    -0.1916550   -0.0702662 
    8576461169    -0.0336301    0.0872629    -0.0465166    0.0094105    -0.0456232    0.0093677    -0.1735964   -0.0908528 
    8580464371    -0.0466748    0.0805807    -0.0444847    0.0146974    -0.0435835    0.0144434    -0.1502835   -0.1074547 
    8584467574    -0.0586553    0.0707049    -0.0433290    0.0209328    -0.0423674    0.0205978    -0.1214218   -0.1199466 
    8588470777    -0.0665853    0.0591958    -0.0409138    0.0285400    -0.0399921    0.0282496    -0.0893792   -0.1296684 
    8592473979    -0.0700602    0.0445800    -0.0359192    0.0363413    -0.0349902    0.0360681    -0.0575341   -0.1357749 
    8596477182    -0.0679344    0.0278245    -0.0288341    0.0425840    -0.0278571    0.0423841    -0.0285445   -0.1361486 
    8600480384    -0.0630828    0.0092466    -0.0206676    0.0471559    -0.0195661    0.0470958    -0.0002178   -0.1284766 
    8604483587    -0.0553004   -0.0105314    -0.0113855    0.0498055    -0.0101035    0.0495960     0.0261201   -0.1142345 
    8608486789    -0.0467257   -0.0286447    -0.0020336    0.0498352    -0.0006264    0.0493850     0.0486987   -0.0960288 
    8612489992    -0.0356147   -0.0423915     0.0058075    0.0473915     0.0072046    0.0469164     0.0654414   -0.0732281 
    8616493195    -0.0205536   -0.0524491     0.0115812    0.0446018     0.0127414    0.0441264     0.0762103   -0.0464302 
    8620496397    -0.0028387   -0.0604095     0.0166444    0.0435512     0.0177571    0.0427592     0.0811313   -0.0172729 
    8624499600     0.0140452   -0.0658664     0.0233933    0.0423883     0.0242699    0.0415157     0.0805164    0.0117368 
