! 5/6/2020 9:31:38 PM
! C:\ANRITSUVNA\TEMP\TEMP.S2P
! CHANNEL.1
! TR.MEASUREMENT
! CORRECTED.DATA
# HZ S RI R 50.0
! FREQ.HZ          S11RE         S11IM         S21RE         S21IM         S12RE         S12IM         S22RE         S22IM         
!; PortSelection: Port_12
    8000000000    -0.1514726    0.1226094    -0.0475853    0.0191492    -0.0464853    0.0197747    -0.2909475   -0.0904417 
    8004003203    -0.1737549    0.1233775    -0.0454455    0.0273587    -0.0434627    0.0275056    -0.2796850   -0.1074014 
    8008006405    -0.1882831    0.1253543    -0.0402825    0.0361146    -0.0386647    0.0356029    -0.2637044   -0.1192123 
    8012009608    -0.1991284    0.1210041    -0.0326199    0.0444445    -0.0314901    0.0436017    -0.2426534   -0.1277676 
    8016012810    -0.2031460    0.1097638    -0.0216855    0.0502038    -0.0210774    0.0493978    -0.2158740   -0.1330871 
    8020016013    -0.2015883    0.0921531    -0.0105299    0.0512419    -0.0102468    0.0506160    -0.1869727   -0.1346161 
    8024019215    -0.1990522    0.0712693    -0.0020287    0.0498065    -0.0017955    0.0492033    -0.1580859   -0.1321687 
    8028022418    -0.1919887    0.0493102     0.0045372    0.0490284     0.0047662    0.0483340    -0.1298704   -0.1244074 
    8032025620    -0.1821192    0.0302546     0.0115608    0.0484085     0.0117987    0.0476881    -0.1039046   -0.1115943 
    8036028823    -0.1690511    0.0138364     0.0190869    0.0471426     0.0193328    0.0464689    -0.0810734   -0.0928183 
    8040032026    -0.1551817    0.0014894     0.0276682    0.0446902     0.0278832    0.0437793    -0.0612459   -0.0690021 
    8044035228    -0.1383857   -0.0023479     0.0361429    0.0394387     0.0362000    0.0385292    -0.0454494   -0.0417388 
    8048038431    -0.1192649    0.0003344     0.0429812    0.0322360     0.0428063    0.0315125    -0.0351502   -0.0142508 
    8052041633    -0.0963020    0.0102416     0.0483039    0.0236522     0.0480743    0.0231061    -0.0316245    0.0148815 
    8056044836    -0.0695383    0.0229496     0.0512112    0.0141964     0.0510288    0.0138582    -0.0352560    0.0440259 
    8060048038    -0.0414197    0.0363086     0.0520854    0.0049044     0.0519583    0.0049936    -0.0439762    0.0722610 
    8064051241    -0.0180066    0.0482812     0.0513677   -0.0035495     0.0513281   -0.0032460    -0.0559117    0.0989303 
    8068054444    -0.0009459    0.0604475     0.0501783   -0.0109005     0.0502778   -0.0103785    -0.0705899    0.1185939 
    8072057646     0.0104961    0.0745088     0.0489981   -0.0186594     0.0493251   -0.0180401    -0.0887325    0.1305645 
    8076060849     0.0191862    0.0910271     0.0469136   -0.0271458     0.0470778   -0.0266349    -0.1111049    0.1369636 
    8080064051     0.0235876    0.1074632     0.0430321   -0.0362762     0.0431218   -0.0357277    -0.1358038    0.1401941 
    8084067254     0.0226329    0.1235802     0.0362236   -0.0456118     0.0361894   -0.0450230    -0.1597238    0.1390613 
    8088070456     0.0169527    0.1391917     0.0258683   -0.0527834     0.0255607   -0.0520290    -0.1801633    0.1332571 
    8092073659     0.0080186    0.1573841     0.0139798   -0.0559627     0.0136695   -0.0548271    -0.1974352    0.1214233 
    8096076861     0.0001139    0.1769131     0.0029266   -0.0551229     0.0028050   -0.0539290    -0.2114567    0.1060525 
    8100080064    -0.0043525    0.1920268    -0.0054207   -0.0523342    -0.0053365   -0.0510450    -0.2210282    0.0888164 
    8104083267    -0.0084995    0.2012604    -0.0118358   -0.0503444    -0.0116199   -0.0489951    -0.2238828    0.0703737 
    8108086469    -0.0128533    0.2055578    -0.0185550   -0.0489045    -0.0180203   -0.0476616    -0.2195462    0.0503287 
    8112089672    -0.0184347    0.2055319    -0.0266698   -0.0475663    -0.0260650   -0.0463138    -0.2081174    0.0285464 
    8116092874    -0.0249263    0.2005210    -0.0367142   -0.0439910    -0.0356415   -0.0429719    -0.1909304    0.0046913 
    8120096077    -0.0319678    0.1889125    -0.0468659   -0.0368612    -0.0453712   -0.0360055    -0.1690632   -0.0201412 
    8124099279    -0.0406592    0.1724797    -0.0552451   -0.0258853    -0.0534760   -0.0255645    -0.1458348   -0.0430960 
    8128102482    -0.0507614    0.1526527    -0.0592648   -0.0118704    -0.0575818   -0.0120128    -0.1199958   -0.0614611 
    8132105685    -0.0623804    0.1333970    -0.0578836    0.0017387    -0.0562936    0.0010205    -0.0918338   -0.0752611 
    8136108887    -0.0709753    0.1167111    -0.0528175    0.0119851    -0.0518070    0.0110390    -0.0631010   -0.0843763 
    8140112090    -0.0708422    0.1019159    -0.0472619    0.0188007    -0.0466225    0.0179345    -0.0357597   -0.0880480 
    8144115292    -0.0632746    0.0848283    -0.0427570    0.0233467    -0.0422847    0.0226964    -0.0100510   -0.0839033 
    8148118495    -0.0527343    0.0670142    -0.0395994    0.0277385    -0.0394108    0.0272762     0.0129924   -0.0716169 
    8152121697    -0.0376235    0.0516715    -0.0368621    0.0331634    -0.0366838    0.0330746     0.0353106   -0.0521892 
    8156124900    -0.0186912    0.0376847    -0.0330607    0.0399732    -0.0328297    0.0400611     0.0548110   -0.0298598 
    8160128102     0.0042191    0.0273814    -0.0266550    0.0469568    -0.0262545    0.0474188     0.0689064   -0.0044118 
    8164131305     0.0313711    0.0204994    -0.0175474    0.0529882    -0.0170597    0.0534364     0.0778571    0.0223690 
    8168134508     0.0591174    0.0139034    -0.0061224    0.0559881    -0.0053860    0.0564296     0.0793223    0.0503751 
    8172137710     0.0829574    0.0067957     0.0057436    0.0551754     0.0063082    0.0554535     0.0745865    0.0789112 
    8176140913     0.0986456    0.0058342     0.0159210    0.0512393     0.0162467    0.0514524     0.0677346    0.1060670 
    8180144115     0.1097033    0.0124671     0.0229817    0.0455578     0.0232163    0.0458701     0.0577328    0.1252010 
    8184147318     0.1205799    0.0287685     0.0281209    0.0412754     0.0280367    0.0414475     0.0423260    0.1363066 
    8188150520     0.1322487    0.0475236     0.0340470    0.0380240     0.0337225    0.0382441     0.0214627    0.1409429 
    8192153723     0.1414009    0.0652876     0.0411693    0.0330800     0.0405915    0.0334028    -0.0031649    0.1406296 
    8196156926     0.1472505    0.0826557     0.0475093    0.0259253     0.0469035    0.0264703    -0.0269635    0.1349554 
    8200160128     0.1494830    0.0966266     0.0522736    0.0170399     0.0516456    0.0176098    -0.0485001    0.1227637 
    8204163331     0.1478659    0.1088530     0.0547674    0.0074924     0.0543239    0.0082082    -0.0684772    0.1039201 
    8208166533     0.1447817    0.1158280     0.0560062   -0.0024816     0.0556702   -0.0019276    -0.0867900    0.0789913 
    8212169736     0.1380872    0.1171467     0.0551601   -0.0135961     0.0547165   -0.0132319    -0.1035643    0.0507014 
    8216172938     0.1231112    0.1128957     0.0503489   -0.0244750     0.0498064   -0.0242571    -0.1167617    0.0233001 
    8220176141     0.1017828    0.1079420     0.0428847   -0.0318423     0.0423822   -0.0315093    -0.1221848   -0.0022874 
    8224179343     0.0793027    0.1036437     0.0369665   -0.0366705     0.0361526   -0.0360453    -0.1181437   -0.0297492 
    8228182546     0.0589931    0.0985884     0.0317715   -0.0422572     0.0310827   -0.0412484    -0.1099352   -0.0601113 
    8232185749     0.0411977    0.0903869     0.0244781   -0.0489714     0.0241740   -0.0474899    -0.1007989   -0.0894023 
    8236188951     0.0237323    0.0784368     0.0140022   -0.0537290     0.0143018   -0.0519498    -0.0885292   -0.1129171 
    8240192154     0.0098162    0.0665995     0.0026702   -0.0547692     0.0034966   -0.0531635    -0.0704448   -0.1308361 
    8244195356     0.0007246    0.0546097    -0.0074697   -0.0524737    -0.0062250   -0.0512714    -0.0478368   -0.1442260 
    8248198559    -0.0004118    0.0417260    -0.0152604   -0.0492979    -0.0139253   -0.0483699    -0.0220486   -0.1529143 
    8252201761     0.0047433    0.0238461    -0.0223104   -0.0458930    -0.0210598   -0.0453916     0.0044720   -0.1565121 
    8256204964     0.0128462    0.0007538    -0.0287976   -0.0417854    -0.0279521   -0.0414638     0.0297594   -0.1537231 
    8260208167     0.0204483   -0.0253342    -0.0347400   -0.0368866    -0.0344123   -0.0366624     0.0531001   -0.1447956 
    8264211369     0.0264561   -0.0484204    -0.0400840   -0.0316179    -0.0401668   -0.0310659     0.0756922   -0.1295783 
    8268214572     0.0340263   -0.0674972    -0.0450877   -0.0255431    -0.0456362   -0.0245534     0.0970657   -0.1099368 
    8272217774     0.0436247   -0.0815840    -0.0497682   -0.0177104    -0.0501442   -0.0162390     0.1151286   -0.0890895 
    8276220977     0.0561316   -0.0916840    -0.0521458   -0.0085870    -0.0525191   -0.0069077     0.1262099   -0.0676209 
    8280224179     0.0704598   -0.0985652    -0.0529186    0.0002548    -0.0529079    0.0019860     0.1285655   -0.0448695 
    8284227382     0.0831672   -0.1000805    -0.0529286    0.0094289    -0.0523853    0.0110159     0.1230900   -0.0209955 
    8288230584     0.0957919   -0.0952742    -0.0512074    0.0195426    -0.0503028    0.0207631     0.1133262    0.0002824 
    8292233787     0.1099991   -0.0843398    -0.0460427    0.0296980    -0.0448820    0.0303732     0.0979828    0.0185635 
    8296236990     0.1257313   -0.0732111    -0.0379612    0.0364651    -0.0371083    0.0365378     0.0753971    0.0311084 
    8300240192     0.1397910   -0.0626033    -0.0313221    0.0405749    -0.0305944    0.0402426     0.0464828    0.0391473 
    8304243395     0.1482004   -0.0534909    -0.0254775    0.0446951    -0.0251026    0.0441989     0.0133579    0.0436011 
    8308246597     0.1489390   -0.0433570    -0.0187830    0.0496888    -0.0187432    0.0494074    -0.0192771    0.0445032 
    8312249800     0.1448780   -0.0319279    -0.0094773    0.0539144    -0.0094999    0.0537562    -0.0493293    0.0388150 
    8316253002     0.1363867   -0.0183421     0.0014099    0.0549602     0.0017300    0.0549570    -0.0790677    0.0261189 
    8320256205     0.1245787   -0.0062165     0.0117142    0.0530900     0.0123273    0.0529009    -0.1070890    0.0094805 
    8324259408     0.1071192    0.0041388     0.0207833    0.0496364     0.0214591    0.0490347    -0.1310767   -0.0081602 
    8328262610     0.0849940    0.0150166     0.0295162    0.0451308     0.0300927    0.0440083    -0.1477342   -0.0265954 
    8332265813     0.0610593    0.0274808     0.0377138    0.0376350     0.0380117    0.0365252    -0.1551037   -0.0470849 
    8336269015     0.0411671    0.0392807     0.0422801    0.0280722     0.0420921    0.0269916    -0.1539272   -0.0715404 
    8340272218     0.0261655    0.0441566     0.0436760    0.0203077     0.0431926    0.0195256    -0.1482286   -0.0997405 
    8344275420     0.0124381    0.0402484     0.0454396    0.0142160     0.0447013    0.0135426    -0.1403155   -0.1270083 
    8348278623    -0.0016739    0.0289596     0.0475870    0.0073761     0.0466973    0.0070255    -0.1280714   -0.1508736 
    8352281825    -0.0165240    0.0144942     0.0486263   -0.0007075     0.0476816   -0.0005309    -0.1102128   -0.1706176 
    8356285028    -0.0282701   -0.0018530     0.0480313   -0.0084688     0.0471263   -0.0081369    -0.0876616   -0.1860145 
    8360288231    -0.0355753   -0.0210737     0.0468575   -0.0155879     0.0461993   -0.0151933    -0.0613709   -0.1975822 
    8364291433    -0.0402024   -0.0436864     0.0454233   -0.0238408     0.0447875   -0.0234247    -0.0354024   -0.2062946 
    8368294636    -0.0438528   -0.0681714     0.0413345   -0.0329718     0.0406722   -0.0328917    -0.0128238   -0.2090374 
    8372297838    -0.0480661   -0.0894755     0.0340234   -0.0406982     0.0332462   -0.0410069     0.0071026   -0.2043639 
    8376301041    -0.0504552   -0.1034671     0.0250178   -0.0453089     0.0236845   -0.0457532     0.0250259   -0.1908529 
    8380304243    -0.0460957   -0.1115014     0.0170058   -0.0470610     0.0150978   -0.0472976     0.0436113   -0.1707916 
    8384307446    -0.0342868   -0.1154433     0.0101978   -0.0484387     0.0080761   -0.0483437     0.0583903   -0.1481685 
    8388310649    -0.0188736   -0.1195987     0.0030309   -0.0502213     0.0007343   -0.0496621     0.0668514   -0.1246539 
    8392313851    -0.0026842   -0.1225268    -0.0060075   -0.0508404    -0.0079161   -0.0498299     0.0660351   -0.0975362 
    8396317054     0.0135157   -0.1217078    -0.0150134   -0.0488696    -0.0164879   -0.0474978     0.0592623   -0.0669771 
    8400320256     0.0300258   -0.1177973    -0.0226298   -0.0456437    -0.0235016   -0.0440941     0.0486250   -0.0363453 
    8404323459     0.0454306   -0.1125004    -0.0302202   -0.0421183    -0.0306552   -0.0407692     0.0337427   -0.0078656 
    8408326661     0.0576012   -0.1058055    -0.0387482   -0.0368026    -0.0386853   -0.0356026     0.0141227    0.0161542 
    8412329864     0.0644549   -0.0986731    -0.0461424   -0.0278270    -0.0457813   -0.0270236    -0.0094077    0.0345159 
    8416333066     0.0629750   -0.0863385    -0.0490719   -0.0172079    -0.0487466   -0.0163451    -0.0356733    0.0475561 
    8420336269     0.0613289   -0.0674310    -0.0485457   -0.0084470    -0.0483728   -0.0076410    -0.0638321    0.0553739 
    8424339472     0.0620747   -0.0466351    -0.0480196   -0.0021427    -0.0478309   -0.0013042    -0.0905188    0.0568696 
    8428342674     0.0615570   -0.0288238    -0.0485646    0.0043573    -0.0482442    0.0054264    -0.1147448    0.0502285 
    8432345877     0.0567203   -0.0124449    -0.0486359    0.0124132    -0.0480394    0.0137433    -0.1368377    0.0362233 
    8436349079     0.0492271    0.0044472    -0.0467446    0.0216041    -0.0456379    0.0227284    -0.1581542    0.0169517 
    8440352282     0.0403737    0.0205357    -0.0420297    0.0305980    -0.0405347    0.0315432    -0.1756673   -0.0040356 
    8444355484     0.0313646    0.0341988    -0.0346182    0.0381429    -0.0330202    0.0384761    -0.1860465   -0.0273325 
    8448358687     0.0221996    0.0421570    -0.0259828    0.0428892    -0.0243456    0.0429183    -0.1910539   -0.0538238 
    8452361890     0.0096839    0.0413978    -0.0172189    0.0453950    -0.0158309    0.0449537    -0.1918509   -0.0823920 
    8456365092    -0.0098609    0.0373809    -0.0093727    0.0459468    -0.0084492    0.0452130    -0.1896771   -0.1102439 
    8460368295    -0.0336770    0.0336127    -0.0028091    0.0458352    -0.0021540    0.0450787    -0.1824028   -0.1331047 
    8464371497    -0.0548690    0.0306902     0.0034283    0.0460350     0.0038213    0.0451690    -0.1689018   -0.1511914 
    8468374700    -0.0720492    0.0248472     0.0105257    0.0460864     0.0108767    0.0453779    -0.1489306   -0.1656786 
    8472377902    -0.0865632    0.0152466     0.0183331    0.0449091     0.0184897    0.0441278    -0.1250398   -0.1770939 
    8476381105    -0.0973475    0.0042648     0.0261448    0.0425389     0.0263675    0.0416376    -0.1010998   -0.1846888 
    8480384307    -0.1036722   -0.0081742     0.0346991    0.0385834     0.0350055    0.0373742    -0.0780695   -0.1847679 
    8484387510    -0.1050157   -0.0212606     0.0431949    0.0311775     0.0435016    0.0296430    -0.0548976   -0.1772884 
    8488390713    -0.1000520   -0.0343924     0.0485434    0.0201973     0.0485111    0.0183846    -0.0300740   -0.1621677 
    8492393915    -0.0873127   -0.0492846     0.0484791    0.0090868     0.0480760    0.0071748    -0.0064401   -0.1420477 
    8496397118    -0.0748057   -0.0658032     0.0452600    0.0017696     0.0445954    0.0000232     0.0151098   -0.1181639 
    8500400320    -0.0623888   -0.0785608     0.0434894   -0.0022323     0.0427307   -0.0038832     0.0301957   -0.0921674 
    8504403523    -0.0469470   -0.0861295     0.0440004   -0.0067836     0.0431526   -0.0081696     0.0384993   -0.0621096 
    8508406725    -0.0279552   -0.0891343     0.0447469   -0.0135859     0.0436836   -0.0146054     0.0400331   -0.0286833 
    8512409928    -0.0076871   -0.0889051     0.0436635   -0.0216467     0.0425309   -0.0225140     0.0390004    0.0060049 
    8516413131     0.0109960   -0.0857578     0.0403577   -0.0302905     0.0393242   -0.0306839     0.0347500    0.0363757 
    8520416333     0.0255979   -0.0781801     0.0346387   -0.0385995     0.0336165   -0.0388032     0.0253464    0.0600944 
    8524419536     0.0376993   -0.0654960     0.0264826   -0.0457904     0.0257187   -0.0457041     0.0083621    0.0759988 
    8528422738     0.0484827   -0.0480467     0.0156774   -0.0503242     0.0149494   -0.0501642    -0.0164817    0.0869551 
    8532425941     0.0596503   -0.0286561     0.0044508   -0.0499261     0.0036662   -0.0497322    -0.0458730    0.0931936 
    8536429143     0.0685871   -0.0120821    -0.0032733   -0.0463962    -0.0042040   -0.0460692    -0.0768240    0.0944554 
    8540432346     0.0703283    0.0028292    -0.0078623   -0.0438063    -0.0088413   -0.0433548    -0.1064250    0.0895081 
    8544435548     0.0665805    0.0202864    -0.0125463   -0.0433063    -0.0136266   -0.0427430    -0.1345646    0.0782466 
    8548438751     0.0599835    0.0387009    -0.0191422   -0.0426751    -0.0202217   -0.0417982    -0.1604539    0.0622172 
    8552441954     0.0527217    0.0564833    -0.0264494   -0.0405178    -0.0273120   -0.0393440    -0.1828062    0.0417839 
    8556445156     0.0425639    0.0691599    -0.0344434   -0.0369119    -0.0351060   -0.0354579    -0.1997090    0.0212994 
    8560448359     0.0304681    0.0784718    -0.0427156   -0.0303328    -0.0428854   -0.0289031    -0.2090715   -0.0007662 
    8564451561     0.0152010    0.0842831    -0.0491944   -0.0206287    -0.0488332   -0.0191415    -0.2111377   -0.0243744 
    8568454764    -0.0041733    0.0871599    -0.0518803   -0.0088588    -0.0510330   -0.0077762    -0.2044923   -0.0470633 
    8572457966    -0.0214413    0.0893829    -0.0497957    0.0018112    -0.0489013    0.0024030    -0.1914363   -0.0699823 
    8576461169    -0.0358242    0.0879725    -0.0463419    0.0085441    -0.0453213    0.0088453    -0.1733424   -0.0909682 
    8580464371    -0.0491626    0.0810403    -0.0444821    0.0139202    -0.0434158    0.0140053    -0.1501348   -0.1076048 
    8584467574    -0.0612082    0.0706396    -0.0434541    0.0202251    -0.0424043    0.0202020    -0.1213076   -0.1201534 
    8588470777    -0.0687989    0.0587475    -0.0410634    0.0281167    -0.0399879    0.0278535    -0.0893880   -0.1299671 
    8592473979    -0.0721170    0.0438452    -0.0359871    0.0358369    -0.0349462    0.0357183    -0.0577212   -0.1360686 
    8596477182    -0.0698492    0.0261477    -0.0289111    0.0421716    -0.0279840    0.0419196    -0.0287951   -0.1362729 
    8600480384    -0.0643072    0.0071227    -0.0207373    0.0468796    -0.0196837    0.0467444    -0.0006364   -0.1286571 
    8604483587    -0.0565267   -0.0131422    -0.0114290    0.0494279    -0.0102016    0.0493471     0.0257596   -0.1144395 
    8608486789    -0.0476074   -0.0314693    -0.0021157    0.0493258    -0.0007997    0.0490466     0.0483929   -0.0963121 
    8612489992    -0.0357043   -0.0451924     0.0056617    0.0468959     0.0070644    0.0465458     0.0650204   -0.0735924 
    8616493195    -0.0201946   -0.0555814     0.0112554    0.0441959     0.0124941    0.0437446     0.0755534   -0.0467894 
    8620496397    -0.0021394   -0.0636712     0.0162372    0.0430475     0.0172493    0.0424462     0.0805875   -0.0176325 
    8624499600     0.0151612   -0.0688353     0.0227917    0.0420592     0.0236245    0.0412348     0.0799471    0.0113346 
